
T2B5C 000:386 SEGGER J-Link V4.96d Log File (0001ms, 0273ms total)
T2B5C 000:386 DLL Compiled: Jan 29 2015 11:45:37 (0001ms, 0273ms total)
T2B5C 000:386 Logging started @ 2018-07-06 13:32 (0001ms, 0273ms total)
T2B5C 000:387 JLINK_SetWarnOutHandler(...) (0000ms, 0273ms total)
T2B5C 000:387 JLINK_OpenEx(...)
Firmware: J-Link ARM V8 compiled Nov 28 2014 13:44:46
Hardware: V8.00
S/N: 286370559
Feature(s): RDI,FlashDL,FlashBP,JFlash  returns O.K. (0268ms, 0541ms total)
T2B5C 000:655 JLINK_SetErrorOutHandler(...) (0000ms, 0541ms total)
T2B5C 000:655 JLINK_ExecCommand("ProjectFile = "F:\研究生\比赛\RM2018\嵌入式\上岛工程\EngineerDistMeaure\MDK-ARM\JLinkSettings.ini"", ...)  returns 0x00 (0003ms, 0544ms total)
T2B5C 000:672 JLINK_ExecCommand("Device = STM32F405RG", ...)Device "STM32F405RG" selected.  returns 0x00 (0009ms, 0553ms total)
T2B5C 000:681 JLINK_ExecCommand("DisableConnectionTimeout", ...)  returns 0x01 (0000ms, 0553ms total)
T2B5C 000:681 JLINK_GetHardwareVersion()  returns 0x13880 (0000ms, 0553ms total)
T2B5C 000:681 JLINK_GetDLLVersion()  returns 49604 (0000ms, 0553ms total)
T2B5C 000:681 JLINK_GetFirmwareString(...) (0000ms, 0553ms total)
T2B5C 000:703 JLINK_GetDLLVersion()  returns 49604 (0000ms, 0553ms total)
T2B5C 000:703 JLINK_GetCompileDateTime() (0000ms, 0553ms total)
T2B5C 000:706 JLINK_GetFirmwareString(...) (0000ms, 0553ms total)
T2B5C 000:710 JLINK_GetHardwareVersion()  returns 0x13880 (0000ms, 0553ms total)
T2B5C 000:715 JLINK_TIF_Select(JLINKARM_TIF_SWD)  returns 0x00 (0002ms, 0555ms total)
T2B5C 000:717 JLINK_SetSpeed(200) (0000ms, 0555ms total)
T2B5C 000:717 JLINK_GetId() >0x108 TIF>Found SWD-DP with ID 0x2BA01477 >0x0D TIF> >0x28 TIF> >0x0D TIF> >0x28 TIF> >0x0D TIF> >0x21 TIF> >0x0D TIF> >0x28 TIF> >0x0D TIF> >0x28 TIF> >0x0D TIF> >0x28 TIF> >0x0D TIF> >0x21 TIF> >0x0D TIF> >0x21 TIF> >0x0D TIF> >0x28 TIF> >0x0D TIF> >0x21 TIF> >0x0D TIF> >0x21 TIF> >0x0D TIF> >0x28 TIF> >0x0D TIF> >0x21 TIF> >0x0D TIF> >0x21 TIF> >0x108 TIF>Found SWD-DP with ID 0x2BA01477 >0x0D TIF> >0x21 TIF> >0x0D TIF> >0x28 TIF> >0x0D TIF> >0x28 TIF> >0x0D TIF> >0x21 TIF>
 >0x0D TIF> >0x28 TIF> >0x0D TIF> >0x21 TIF> >0x0D TIF> >0x21 TIF> >0x0D TIF> >0x21 TIF> >0x0D TIF> >0x21 TIF> >0x0D TIF> >0x28 TIF> >0x0D TIF> >0x28 TIF> >0x0D TIF> >0x21 TIF> >0x0D TIF> >0x28 TIF> >0x0D TIF> >0x28 TIF> >0x0D TIF> >0x28 TIF> >0x0D TIF> >0x21 TIF> >0x0D TIF> >0x21 TIF> >0x0D TIF> >0x28 TIF> >0x0D TIF> >0x21 TIF> >0x0D TIF> >0x21 TIF>Found Cortex-M4 r0p1, Little endian. -- CPU_WriteMem(4 bytes @ 0xE0002000) -- CPU_ReadMem(4 bytes @ 0xE000EDF0) -- CPU_ReadMem(4 bytes @ 0xE0002000)
FPUnit: 6 code (BP) slots and 2 literal slots -- CPU_ReadMem(4 bytes @ 0xE000EDFC) -- CPU_ReadMem(4 bytes @ 0xE0001000) -- CPU_WriteMem(4 bytes @ 0xE0001000) -- CPU_ReadMem(4 bytes @ 0xE000ED88) -- CPU_WriteMem(4 bytes @ 0xE000ED88) -- CPU_ReadMem(4 bytes @ 0xE000ED88) -- CPU_WriteMem(4 bytes @ 0xE000ED88) -- CPU_ReadMem(4 bytes @ 0xE00FF010)TPIU fitted. -- CPU_ReadMem(4 bytes @ 0xE00FF014)ETM fitted. -- CPU_ReadMem(4 bytes @ 0xE00FF018) >0x0D TIF> >0x21 TIF>  returns 0x2BA01477 (0079ms, 0634ms total)
T2B5C 000:796 JLINK_GetDLLVersion()  returns 49604 (0000ms, 0634ms total)
T2B5C 000:796 JLINK_CORE_GetFound()  returns 0xE0000FF (0000ms, 0634ms total)
T2B5C 000:796 JLINK_GetDebugInfo(0x100) -- Value=0xE00FF003  returns 0x00 (0000ms, 0634ms total)
T2B5C 000:798 JLINK_ReadMem (0xE00FF000, 0x0020 Bytes, ...) -- CPU is running -- CPU_ReadMem(32 bytes @ 0xE00FF000) - Data: 03 F0 F0 FF 03 20 F0 FF 03 30 F0 FF 03 10 F0 FF ...  returns 0x00 (0005ms, 0639ms total)
T2B5C 000:803 JLINK_ReadMem (0xE000EFF0, 0x0010 Bytes, ...) -- CPU is running -- CPU_ReadMem(16 bytes @ 0xE000EFF0) - Data: 0D 00 00 00 E0 00 00 00 05 00 00 00 B1 00 00 00  returns 0x00 (0004ms, 0643ms total)
T2B5C 000:807 JLINK_ReadMem (0xE000EFD0, 0x0020 Bytes, ...) -- CPU is running -- CPU_ReadMem(32 bytes @ 0xE000EFD0) - Data: 04 00 00 00 00 00 00 00 00 00 00 00 00 00 00 00 ...  returns 0x00 (0005ms, 0648ms total)
T2B5C 000:812 JLINK_ReadMem (0xE0001FF0, 0x0010 Bytes, ...) -- CPU is running -- CPU_ReadMem(16 bytes @ 0xE0001FF0) - Data: 0D 00 00 00 E0 00 00 00 05 00 00 00 B1 00 00 00  returns 0x00 (0004ms, 0652ms total)
T2B5C 000:816 JLINK_ReadMem (0xE0001FD0, 0x0020 Bytes, ...) -- CPU is running -- CPU_ReadMem(32 bytes @ 0xE0001FD0) - Data: 04 00 00 00 00 00 00 00 00 00 00 00 00 00 00 00 ...  returns 0x00 (0005ms, 0657ms total)
T2B5C 000:821 JLINK_ReadMem (0xE0002FF0, 0x0010 Bytes, ...) -- CPU is running -- CPU_ReadMem(16 bytes @ 0xE0002FF0) - Data: 0D 00 00 00 E0 00 00 00 05 00 00 00 B1 00 00 00  returns 0x00 (0004ms, 0661ms total)
T2B5C 000:825 JLINK_ReadMem (0xE0002FD0, 0x0020 Bytes, ...) -- CPU is running -- CPU_ReadMem(32 bytes @ 0xE0002FD0) - Data: 04 00 00 00 00 00 00 00 00 00 00 00 00 00 00 00 ...  returns 0x00 (0005ms, 0666ms total)
T2B5C 000:830 JLINK_ReadMem (0xE0000FF0, 0x0010 Bytes, ...) -- CPU is running -- CPU_ReadMem(16 bytes @ 0xE0000FF0) - Data: 0D 00 00 00 E0 00 00 00 05 00 00 00 B1 00 00 00  returns 0x00 (0006ms, 0672ms total)
T2B5C 000:836 JLINK_ReadMem (0xE0000FD0, 0x0020 Bytes, ...) -- CPU is running -- CPU_ReadMem(32 bytes @ 0xE0000FD0) - Data: 04 00 00 00 00 00 00 00 00 00 00 00 00 00 00 00 ...  returns 0x00 (0004ms, 0676ms total)
T2B5C 000:840 JLINK_ReadMem (0xE0040FF0, 0x0010 Bytes, ...) -- CPU is running -- CPU_ReadMem(16 bytes @ 0xE0040FF0) - Data: 0D 00 00 00 90 00 00 00 05 00 00 00 B1 00 00 00  returns 0x00 (0004ms, 0680ms total)
T2B5C 000:844 JLINK_ReadMem (0xE0040FD0, 0x0020 Bytes, ...) -- CPU is running -- CPU_ReadMem(32 bytes @ 0xE0040FD0) - Data: 04 00 00 00 00 00 00 00 00 00 00 00 00 00 00 00 ...  returns 0x00 (0006ms, 0686ms total)
T2B5C 000:850 JLINK_ReadMem (0xE0041FF0, 0x0010 Bytes, ...) -- CPU is running -- CPU_ReadMem(16 bytes @ 0xE0041FF0) - Data: 0D 00 00 00 90 00 00 00 05 00 00 00 B1 00 00 00  returns 0x00 (0004ms, 0690ms total)
T2B5C 000:854 JLINK_ReadMem (0xE0041FD0, 0x0020 Bytes, ...) -- CPU is running -- CPU_ReadMem(32 bytes @ 0xE0041FD0) - Data: 04 00 00 00 00 00 00 00 00 00 00 00 00 00 00 00 ...  returns 0x00 (0005ms, 0695ms total)
T2B5C 000:859 JLINK_ReadMemU32(0xE000EF40, 0x0001 Items, ...) -- CPU is running -- CPU_ReadMem(4 bytes @ 0xE000EF40) - Data: 21 00 11 10  returns 0x01 (0004ms, 0699ms total)
T2B5C 000:863 JLINK_ReadMemU32(0xE000EF44, 0x0001 Items, ...) -- CPU is running -- CPU_ReadMem(4 bytes @ 0xE000EF44) - Data: 11 00 00 11  returns 0x01 (0003ms, 0702ms total)
T2B5C 000:866 JLINK_ReadMemU32(0xE000ED00, 0x0001 Items, ...) -- CPU is running -- CPU_ReadMem(4 bytes @ 0xE000ED00) - Data: 41 C2 0F 41  returns 0x01 (0004ms, 0706ms total)
T2B5C 000:870 JLINK_SetResetType(JLINKARM_RESET_TYPE_NORMAL)  returns JLINKARM_RESET_TYPE_NORMAL (0000ms, 0706ms total)
T2B5C 000:870 JLINK_Reset() -- CPU is running -- CPU_WriteMem(4 bytes @ 0xE000EDF0) -- CPU is running -- CPU_WriteMem(4 bytes @ 0xE000EDFC) >0x35 TIF> -- CPU is running -- CPU_WriteMem(4 bytes @ 0xE000ED0C) -- CPU is running -- CPU_ReadMem(4 bytes @ 0xE000EDF0) -- CPU is running -- CPU_ReadMem(4 bytes @ 0xE000EDF0) -- CPU is running -- CPU_WriteMem(4 bytes @ 0xE000EDF0) -- CPU is running -- CPU_WriteMem(4 bytes @ 0xE000EDFC) -- CPU is running -- CPU_ReadMem(4 bytes @ 0xE000EDF0)
 -- CPU_WriteMem(4 bytes @ 0xE0002000) -- CPU_ReadMem(4 bytes @ 0xE000EDFC) -- CPU_ReadMem(4 bytes @ 0xE0001000) (0088ms, 0794ms total)
T2B5C 000:958 JLINK_Halt()  returns 0x00 (0000ms, 0794ms total)
T2B5C 000:958 JLINK_IsHalted()  returns TRUE (0000ms, 0794ms total)
T2B5C 000:958 JLINK_ReadMemU32(0xE000EDF0, 0x0001 Items, ...) -- CPU_ReadMem(4 bytes @ 0xE000EDF0) - Data: 03 00 03 00  returns 0x01 (0004ms, 0798ms total)
T2B5C 000:962 JLINK_WriteU32(0xE000EDF0, 0xA05F0003) -- CPU_WriteMem(4 bytes @ 0xE000EDF0)  returns 0x00 (0002ms, 0800ms total)
T2B5C 000:964 JLINK_WriteU32(0xE000EDFC, 0x01000000) -- CPU_WriteMem(4 bytes @ 0xE000EDFC)  returns 0x00 (0002ms, 0802ms total)
T2B5C 000:983 JLINK_GetHWStatus(...)  returns 0x00 (0001ms, 0803ms total)
T2B5C 001:011 JLINK_GetNumBPUnits(Type = 0xFFFFFF00)  returns 0x06 (0000ms, 0803ms total)
T2B5C 001:011 JLINK_GetNumBPUnits(Type = 0xF0)  returns 0x2000 (0000ms, 0803ms total)
T2B5C 001:011 JLINK_GetNumWPUnits()  returns 0x04 (0000ms, 0803ms total)
T2B5C 001:022 JLINK_GetSpeed()  returns 0xC8 (0000ms, 0803ms total)
T2B5C 001:028 JLINK_ReadMemU32(0xE000E004, 0x0001 Items, ...) -- CPU_ReadMem(4 bytes @ 0xE000E004) - Data: 02 00 00 00  returns 0x01 (0004ms, 0807ms total)
T2B5C 001:032 JLINK_ReadMemU32(0xE000E004, 0x0001 Items, ...) -- CPU_ReadMem(4 bytes @ 0xE000E004) - Data: 02 00 00 00  returns 0x01 (0003ms, 0810ms total)
T2B5C 001:035 JLINK_WriteMem(0xE0001000, 0x001C Bytes, ...) - Data: 01 00 00 00 00 00 00 00 00 00 00 00 00 00 00 00 ... -- CPU_WriteMem(28 bytes @ 0xE0001000)  returns 0x1C (0005ms, 0815ms total)
T2B5C 001:040 JLINK_ReadMem (0xE0001000, 0x001C Bytes, ...) -- CPU_ReadMem(28 bytes @ 0xE0001000) - Data: 01 00 00 40 00 00 00 00 00 00 00 00 00 00 00 00 ...  returns 0x00 (0005ms, 0820ms total)
T2B5C 001:045 JLINK_Halt()  returns 0x00 (0000ms, 0820ms total)
T2B5C 001:045 JLINK_IsHalted()  returns TRUE (0000ms, 0820ms total)
T2B5C 001:050 JLINK_WriteMem(0x20000000, 0x0180 Bytes, ...) - Data: 00 BE 0A E0 0D 78 2D 06 68 40 08 24 40 00 00 D3 ... -- CPU_WriteMem(384 bytes @ 0x20000000)  returns 0x180 (0027ms, 0847ms total)
T2B5C 001:077 JLINK_WriteReg(R0, 0x08000000)  returns 0x00 (0000ms, 0847ms total)
T2B5C 001:077 JLINK_WriteReg(R1, 0x00B71B00)  returns 0x00 (0000ms, 0847ms total)
T2B5C 001:077 JLINK_WriteReg(R2, 0x00000001)  returns 0x00 (0000ms, 0847ms total)
T2B5C 001:077 JLINK_WriteReg(R3, 0x00000000)  returns 0x00 (0000ms, 0847ms total)
T2B5C 001:077 JLINK_WriteReg(R4, 0x00000000)  returns 0x00 (0000ms, 0847ms total)
T2B5C 001:077 JLINK_WriteReg(R5, 0x00000000)  returns 0x00 (0000ms, 0847ms total)
T2B5C 001:077 JLINK_WriteReg(R6, 0x00000000)  returns 0x00 (0000ms, 0847ms total)
T2B5C 001:077 JLINK_WriteReg(R7, 0x00000000)  returns 0x00 (0001ms, 0848ms total)
T2B5C 001:078 JLINK_WriteReg(R8, 0x00000000)  returns 0x00 (0000ms, 0848ms total)
T2B5C 001:078 JLINK_WriteReg(R9, 0x2000017C)  returns 0x00 (0000ms, 0848ms total)
T2B5C 001:078 JLINK_WriteReg(R10, 0x00000000)  returns 0x00 (0000ms, 0848ms total)
T2B5C 001:078 JLINK_WriteReg(R11, 0x00000000)  returns 0x00 (0000ms, 0848ms total)
T2B5C 001:078 JLINK_WriteReg(R12, 0x00000000)  returns 0x00 (0000ms, 0848ms total)
T2B5C 001:078 JLINK_WriteReg(R13 (SP), 0x20001000)  returns 0x00 (0000ms, 0848ms total)
T2B5C 001:078 JLINK_WriteReg(R14, 0x20000001)  returns 0x00 (0000ms, 0848ms total)
T2B5C 001:078 JLINK_WriteReg(R15 (PC), 0x20000054)  returns 0x00 (0000ms, 0848ms total)
T2B5C 001:078 JLINK_WriteReg(XPSR, 0x01000000)  returns 0x00 (0000ms, 0848ms total)
T2B5C 001:078 JLINK_WriteReg(MSP, 0x20001000)  returns 0x00 (0000ms, 0848ms total)
T2B5C 001:078 JLINK_WriteReg(PSP, 0x20001000)  returns 0x00 (0000ms, 0848ms total)
T2B5C 001:078 JLINK_WriteReg(CFBP, 0x00000000)  returns 0x00 (0000ms, 0848ms total)
T2B5C 001:078 JLINK_SetBPEx(Addr = 0x20000000, Type = 0xFFFFFFF2) -- CPU_ReadMem(2 bytes @ 0x20000000)  returns 0x00000001 (0004ms, 0852ms total)
T2B5C 001:082 JLINK_Go() -- CPU_WriteMem(2 bytes @ 0x20000000) -- CPU_WriteMem(4 bytes @ 0xE0002008) -- CPU_WriteMem(4 bytes @ 0xE000200C) -- CPU_WriteMem(4 bytes @ 0xE0002010) -- CPU_WriteMem(4 bytes @ 0xE0002014) -- CPU_WriteMem(4 bytes @ 0xE0002018) -- CPU_WriteMem(4 bytes @ 0xE000201C) -- CPU_WriteMem(4 bytes @ 0xE0001004) (0024ms, 0876ms total)
T2B5C 001:106 JLINK_IsHalted() -- CPU_ReadMem(2 bytes @ 0x20000000)  returns TRUE (0051ms, 0927ms total)
T2B5C 001:157 JLINK_ReadReg(R15 (PC))  returns 0x20000000 (0000ms, 0876ms total)
T2B5C 001:157 JLINK_ClrBPEx(BPHandle = 0x00000001)  returns 0x00 (0000ms, 0876ms total)
T2B5C 001:157 JLINK_ReadReg(R0)  returns 0x00000000 (0000ms, 0876ms total)
T2B5C 001:158 JLINK_WriteReg(R0, 0x08000000)  returns 0x00 (0000ms, 0876ms total)
T2B5C 001:158 JLINK_WriteReg(R1, 0x00004000)  returns 0x00 (0000ms, 0876ms total)
T2B5C 001:158 JLINK_WriteReg(R2, 0x000000FF)  returns 0x00 (0000ms, 0876ms total)
T2B5C 001:158 JLINK_WriteReg(R3, 0x00000000)  returns 0x00 (0000ms, 0876ms total)
T2B5C 001:158 JLINK_WriteReg(R4, 0x00000000)  returns 0x00 (0000ms, 0876ms total)
T2B5C 001:158 JLINK_WriteReg(R5, 0x00000000)  returns 0x00 (0000ms, 0876ms total)
T2B5C 001:158 JLINK_WriteReg(R6, 0x00000000)  returns 0x00 (0000ms, 0876ms total)
T2B5C 001:158 JLINK_WriteReg(R7, 0x00000000)  returns 0x00 (0000ms, 0876ms total)
T2B5C 001:158 JLINK_WriteReg(R8, 0x00000000)  returns 0x00 (0000ms, 0876ms total)
T2B5C 001:158 JLINK_WriteReg(R9, 0x2000017C)  returns 0x00 (0000ms, 0876ms total)
T2B5C 001:158 JLINK_WriteReg(R10, 0x00000000)  returns 0x00 (0001ms, 0877ms total)
T2B5C 001:159 JLINK_WriteReg(R11, 0x00000000)  returns 0x00 (0000ms, 0877ms total)
T2B5C 001:159 JLINK_WriteReg(R12, 0x00000000)  returns 0x00 (0000ms, 0877ms total)
T2B5C 001:159 JLINK_WriteReg(R13 (SP), 0x20001000)  returns 0x00 (0000ms, 0877ms total)
T2B5C 001:159 JLINK_WriteReg(R14, 0x20000001)  returns 0x00 (0000ms, 0877ms total)
T2B5C 001:159 JLINK_WriteReg(R15 (PC), 0x20000020)  returns 0x00 (0000ms, 0877ms total)
T2B5C 001:159 JLINK_WriteReg(XPSR, 0x01000000)  returns 0x00 (0000ms, 0877ms total)
T2B5C 001:159 JLINK_WriteReg(MSP, 0x20001000)  returns 0x00 (0000ms, 0877ms total)
T2B5C 001:159 JLINK_WriteReg(PSP, 0x20001000)  returns 0x00 (0000ms, 0877ms total)
T2B5C 001:159 JLINK_WriteReg(CFBP, 0x00000000)  returns 0x00 (0000ms, 0877ms total)
T2B5C 001:159 JLINK_SetBPEx(Addr = 0x20000000, Type = 0xFFFFFFF2)  returns 0x00000002 (0000ms, 0877ms total)
T2B5C 001:159 JLINK_Go() (0010ms, 0887ms total)
T2B5C 001:169 JLINK_IsHalted() -- CPU_ReadMem(2 bytes @ 0x20000000)  returns TRUE (0052ms, 0939ms total)
T2B5C 001:221 JLINK_ReadReg(R15 (PC))  returns 0x20000000 (0000ms, 0887ms total)
T2B5C 001:221 JLINK_ClrBPEx(BPHandle = 0x00000002)  returns 0x00 (0000ms, 0887ms total)
T2B5C 001:221 JLINK_ReadReg(R0)  returns 0x00000001 (0000ms, 0887ms total)
T2B5C 001:221 JLINK_WriteReg(R0, 0x08000000)  returns 0x00 (0000ms, 0887ms total)
T2B5C 001:221 JLINK_WriteReg(R1, 0x00004000)  returns 0x00 (0000ms, 0887ms total)
T2B5C 001:221 JLINK_WriteReg(R2, 0x000000FF)  returns 0x00 (0000ms, 0887ms total)
T2B5C 001:221 JLINK_WriteReg(R3, 0x00000000)  returns 0x00 (0000ms, 0887ms total)
T2B5C 001:221 JLINK_WriteReg(R4, 0x00000000)  returns 0x00 (0000ms, 0887ms total)
T2B5C 001:221 JLINK_WriteReg(R5, 0x00000000)  returns 0x00 (0000ms, 0887ms total)
T2B5C 001:221 JLINK_WriteReg(R6, 0x00000000)  returns 0x00 (0000ms, 0887ms total)
T2B5C 001:221 JLINK_WriteReg(R7, 0x00000000)  returns 0x00 (0000ms, 0887ms total)
T2B5C 001:221 JLINK_WriteReg(R8, 0x00000000)  returns 0x00 (0000ms, 0887ms total)
T2B5C 001:221 JLINK_WriteReg(R9, 0x2000017C)  returns 0x00 (0000ms, 0887ms total)
T2B5C 001:221 JLINK_WriteReg(R10, 0x00000000)  returns 0x00 (0000ms, 0887ms total)
T2B5C 001:221 JLINK_WriteReg(R11, 0x00000000)  returns 0x00 (0000ms, 0887ms total)
T2B5C 001:221 JLINK_WriteReg(R12, 0x00000000)  returns 0x00 (0000ms, 0887ms total)
T2B5C 001:221 JLINK_WriteReg(R13 (SP), 0x20001000)  returns 0x00 (0000ms, 0887ms total)
T2B5C 001:221 JLINK_WriteReg(R14, 0x20000001)  returns 0x00 (0001ms, 0888ms total)
T2B5C 001:222 JLINK_WriteReg(R15 (PC), 0x200000BC)  returns 0x00 (0000ms, 0888ms total)
T2B5C 001:222 JLINK_WriteReg(XPSR, 0x01000000)  returns 0x00 (0000ms, 0888ms total)
T2B5C 001:222 JLINK_WriteReg(MSP, 0x20001000)  returns 0x00 (0000ms, 0888ms total)
T2B5C 001:222 JLINK_WriteReg(PSP, 0x20001000)  returns 0x00 (0000ms, 0888ms total)
T2B5C 001:222 JLINK_WriteReg(CFBP, 0x00000000)  returns 0x00 (0000ms, 0888ms total)
T2B5C 001:222 JLINK_SetBPEx(Addr = 0x20000000, Type = 0xFFFFFFF2)  returns 0x00000003 (0000ms, 0888ms total)
T2B5C 001:222 JLINK_Go() (0009ms, 0897ms total)
T2B5C 001:231 JLINK_IsHalted()  returns FALSE (0004ms, 0901ms total)
T2B5C 001:328 JLINK_IsHalted()  returns FALSE (0003ms, 0900ms total)
T2B5C 001:333 JLINK_IsHalted()  returns FALSE (0003ms, 0900ms total)
T2B5C 001:338 JLINK_IsHalted()  returns FALSE (0003ms, 0900ms total)
T2B5C 001:343 JLINK_IsHalted()  returns FALSE (0003ms, 0900ms total)
T2B5C 001:348 JLINK_IsHalted()  returns FALSE (0003ms, 0900ms total)
T2B5C 001:353 JLINK_IsHalted()  returns FALSE (0003ms, 0900ms total)
T2B5C 001:358 JLINK_IsHalted()  returns FALSE (0003ms, 0900ms total)
T2B5C 001:366 JLINK_IsHalted()  returns FALSE (0003ms, 0900ms total)
T2B5C 001:371 JLINK_IsHalted()  returns FALSE (0003ms, 0900ms total)
T2B5C 001:376 JLINK_IsHalted()  returns FALSE (0003ms, 0900ms total)
T2B5C 001:381 JLINK_IsHalted()  returns FALSE (0003ms, 0900ms total)
T2B5C 001:386 JLINK_IsHalted()  returns FALSE (0003ms, 0900ms total)
T2B5C 001:391 JLINK_IsHalted()  returns FALSE (0003ms, 0900ms total)
T2B5C 001:397 JLINK_IsHalted()  returns FALSE (0003ms, 0900ms total)
T2B5C 001:402 JLINK_IsHalted()  returns FALSE (0003ms, 0900ms total)
T2B5C 001:412 JLINK_IsHalted()  returns FALSE (0003ms, 0900ms total)
T2B5C 001:417 JLINK_IsHalted()  returns FALSE (0003ms, 0900ms total)
T2B5C 001:422 JLINK_IsHalted()  returns FALSE (0003ms, 0900ms total)
T2B5C 001:428 JLINK_IsHalted()  returns FALSE (0003ms, 0900ms total)
T2B5C 001:433 JLINK_IsHalted()  returns FALSE (0003ms, 0900ms total)
T2B5C 001:438 JLINK_IsHalted()  returns FALSE (0003ms, 0900ms total)
T2B5C 001:443 JLINK_IsHalted()  returns FALSE (0003ms, 0900ms total)
T2B5C 001:448 JLINK_IsHalted()  returns FALSE (0003ms, 0900ms total)
T2B5C 001:453 JLINK_IsHalted()  returns FALSE (0003ms, 0900ms total)
T2B5C 001:460 JLINK_IsHalted()  returns FALSE (0003ms, 0900ms total)
T2B5C 001:467 JLINK_IsHalted()  returns FALSE (0003ms, 0900ms total)
T2B5C 001:485 JLINK_IsHalted()  returns FALSE (0003ms, 0900ms total)
T2B5C 001:493 JLINK_IsHalted()  returns FALSE (0002ms, 0899ms total)
T2B5C 001:500 JLINK_IsHalted()  returns FALSE (0002ms, 0899ms total)
T2B5C 001:507 JLINK_IsHalted()  returns FALSE (0003ms, 0900ms total)
T2B5C 001:514 JLINK_IsHalted()  returns FALSE (0003ms, 0900ms total)
T2B5C 001:531 JLINK_IsHalted()  returns FALSE (0003ms, 0900ms total)
T2B5C 001:535 JLINK_IsHalted()  returns FALSE (0003ms, 0900ms total)
T2B5C 001:541 JLINK_IsHalted()  returns FALSE (0003ms, 0900ms total)
T2B5C 001:546 JLINK_IsHalted()  returns FALSE (0003ms, 0900ms total)
T2B5C 001:552 JLINK_IsHalted()  returns FALSE (0003ms, 0900ms total)
T2B5C 001:559 JLINK_IsHalted()  returns FALSE (0002ms, 0899ms total)
T2B5C 001:564 JLINK_IsHalted()  returns FALSE (0003ms, 0900ms total)
T2B5C 001:569 JLINK_IsHalted() -- CPU_ReadMem(2 bytes @ 0x20000000)  returns TRUE (0051ms, 0948ms total)
T2B5C 001:620 JLINK_ReadReg(R15 (PC))  returns 0x20000000 (0000ms, 0897ms total)
T2B5C 001:620 JLINK_ClrBPEx(BPHandle = 0x00000003)  returns 0x00 (0000ms, 0897ms total)
T2B5C 001:620 JLINK_ReadReg(R0)  returns 0x00000000 (0000ms, 0897ms total)
T2B5C 001:621 JLINK_WriteReg(R0, 0x08004000)  returns 0x00 (0000ms, 0897ms total)
T2B5C 001:621 JLINK_WriteReg(R1, 0x00004000)  returns 0x00 (0000ms, 0897ms total)
T2B5C 001:621 JLINK_WriteReg(R2, 0x000000FF)  returns 0x00 (0000ms, 0897ms total)
T2B5C 001:621 JLINK_WriteReg(R3, 0x00000000)  returns 0x00 (0000ms, 0897ms total)
T2B5C 001:621 JLINK_WriteReg(R4, 0x00000000)  returns 0x00 (0000ms, 0897ms total)
T2B5C 001:621 JLINK_WriteReg(R5, 0x00000000)  returns 0x00 (0001ms, 0898ms total)
T2B5C 001:622 JLINK_WriteReg(R6, 0x00000000)  returns 0x00 (0000ms, 0898ms total)
T2B5C 001:622 JLINK_WriteReg(R7, 0x00000000)  returns 0x00 (0000ms, 0898ms total)
T2B5C 001:622 JLINK_WriteReg(R8, 0x00000000)  returns 0x00 (0000ms, 0898ms total)
T2B5C 001:622 JLINK_WriteReg(R9, 0x2000017C)  returns 0x00 (0000ms, 0898ms total)
T2B5C 001:622 JLINK_WriteReg(R10, 0x00000000)  returns 0x00 (0000ms, 0898ms total)
T2B5C 001:622 JLINK_WriteReg(R11, 0x00000000)  returns 0x00 (0000ms, 0898ms total)
T2B5C 001:622 JLINK_WriteReg(R12, 0x00000000)  returns 0x00 (0000ms, 0898ms total)
T2B5C 001:622 JLINK_WriteReg(R13 (SP), 0x20001000)  returns 0x00 (0000ms, 0898ms total)
T2B5C 001:622 JLINK_WriteReg(R14, 0x20000001)  returns 0x00 (0000ms, 0898ms total)
T2B5C 001:622 JLINK_WriteReg(R15 (PC), 0x20000020)  returns 0x00 (0000ms, 0898ms total)
T2B5C 001:622 JLINK_WriteReg(XPSR, 0x01000000)  returns 0x00 (0000ms, 0898ms total)
T2B5C 001:622 JLINK_WriteReg(MSP, 0x20001000)  returns 0x00 (0000ms, 0898ms total)
T2B5C 001:622 JLINK_WriteReg(PSP, 0x20001000)  returns 0x00 (0000ms, 0898ms total)
T2B5C 001:622 JLINK_WriteReg(CFBP, 0x00000000)  returns 0x00 (0000ms, 0898ms total)
T2B5C 001:622 JLINK_SetBPEx(Addr = 0x20000000, Type = 0xFFFFFFF2)  returns 0x00000004 (0000ms, 0898ms total)
T2B5C 001:622 JLINK_Go() (0010ms, 0908ms total)
T2B5C 001:633 JLINK_IsHalted() -- CPU_ReadMem(2 bytes @ 0x20000000)  returns TRUE (0051ms, 0960ms total)
T2B5C 001:685 JLINK_ReadReg(R15 (PC))  returns 0x20000000 (0000ms, 0909ms total)
T2B5C 001:685 JLINK_ClrBPEx(BPHandle = 0x00000004)  returns 0x00 (0000ms, 0909ms total)
T2B5C 001:685 JLINK_ReadReg(R0)  returns 0x00000001 (0001ms, 0910ms total)
T2B5C 001:686 JLINK_WriteReg(R0, 0x08004000)  returns 0x00 (0000ms, 0910ms total)
T2B5C 001:686 JLINK_WriteReg(R1, 0x00004000)  returns 0x00 (0000ms, 0910ms total)
T2B5C 001:686 JLINK_WriteReg(R2, 0x000000FF)  returns 0x00 (0000ms, 0910ms total)
T2B5C 001:686 JLINK_WriteReg(R3, 0x00000000)  returns 0x00 (0000ms, 0910ms total)
T2B5C 001:686 JLINK_WriteReg(R4, 0x00000000)  returns 0x00 (0000ms, 0910ms total)
T2B5C 001:686 JLINK_WriteReg(R5, 0x00000000)  returns 0x00 (0000ms, 0910ms total)
T2B5C 001:686 JLINK_WriteReg(R6, 0x00000000)  returns 0x00 (0000ms, 0910ms total)
T2B5C 001:686 JLINK_WriteReg(R7, 0x00000000)  returns 0x00 (0000ms, 0910ms total)
T2B5C 001:686 JLINK_WriteReg(R8, 0x00000000)  returns 0x00 (0000ms, 0910ms total)
T2B5C 001:686 JLINK_WriteReg(R9, 0x2000017C)  returns 0x00 (0000ms, 0910ms total)
T2B5C 001:686 JLINK_WriteReg(R10, 0x00000000)  returns 0x00 (0000ms, 0910ms total)
T2B5C 001:686 JLINK_WriteReg(R11, 0x00000000)  returns 0x00 (0000ms, 0910ms total)
T2B5C 001:686 JLINK_WriteReg(R12, 0x00000000)  returns 0x00 (0000ms, 0910ms total)
T2B5C 001:686 JLINK_WriteReg(R13 (SP), 0x20001000)  returns 0x00 (0000ms, 0910ms total)
T2B5C 001:686 JLINK_WriteReg(R14, 0x20000001)  returns 0x00 (0000ms, 0910ms total)
T2B5C 001:686 JLINK_WriteReg(R15 (PC), 0x200000BC)  returns 0x00 (0000ms, 0910ms total)
T2B5C 001:686 JLINK_WriteReg(XPSR, 0x01000000)  returns 0x00 (0000ms, 0910ms total)
T2B5C 001:686 JLINK_WriteReg(MSP, 0x20001000)  returns 0x00 (0000ms, 0910ms total)
T2B5C 001:686 JLINK_WriteReg(PSP, 0x20001000)  returns 0x00 (0001ms, 0911ms total)
T2B5C 001:687 JLINK_WriteReg(CFBP, 0x00000000)  returns 0x00 (0000ms, 0911ms total)
T2B5C 001:687 JLINK_SetBPEx(Addr = 0x20000000, Type = 0xFFFFFFF2)  returns 0x00000005 (0000ms, 0911ms total)
T2B5C 001:687 JLINK_Go() (0007ms, 0918ms total)
T2B5C 001:695 JLINK_IsHalted()  returns FALSE (0003ms, 0921ms total)
T2B5C 001:744 JLINK_IsHalted()  returns FALSE (0003ms, 0921ms total)
T2B5C 001:749 JLINK_IsHalted()  returns FALSE (0003ms, 0921ms total)
T2B5C 001:754 JLINK_IsHalted()  returns FALSE (0003ms, 0921ms total)
T2B5C 001:759 JLINK_IsHalted()  returns FALSE (0004ms, 0922ms total)
T2B5C 001:764 JLINK_IsHalted()  returns FALSE (0004ms, 0922ms total)
T2B5C 001:769 JLINK_IsHalted()  returns FALSE (0003ms, 0921ms total)
T2B5C 001:774 JLINK_IsHalted()  returns FALSE (0003ms, 0921ms total)
T2B5C 001:779 JLINK_IsHalted()  returns FALSE (0003ms, 0921ms total)
T2B5C 001:784 JLINK_IsHalted()  returns FALSE (0003ms, 0921ms total)
T2B5C 001:789 JLINK_IsHalted()  returns FALSE (0003ms, 0921ms total)
T2B5C 001:794 JLINK_IsHalted()  returns FALSE (0003ms, 0921ms total)
T2B5C 001:808 JLINK_IsHalted()  returns FALSE (0003ms, 0921ms total)
T2B5C 001:813 JLINK_IsHalted()  returns FALSE (0003ms, 0921ms total)
T2B5C 001:818 JLINK_IsHalted()  returns FALSE (0003ms, 0921ms total)
T2B5C 001:823 JLINK_IsHalted()  returns FALSE (0003ms, 0921ms total)
T2B5C 001:828 JLINK_IsHalted()  returns FALSE (0003ms, 0921ms total)
T2B5C 001:833 JLINK_IsHalted()  returns FALSE (0003ms, 0921ms total)
T2B5C 001:838 JLINK_IsHalted()  returns FALSE (0003ms, 0921ms total)
T2B5C 001:843 JLINK_IsHalted()  returns FALSE (0003ms, 0921ms total)
T2B5C 001:854 JLINK_IsHalted()  returns FALSE (0003ms, 0921ms total)
T2B5C 001:859 JLINK_IsHalted()  returns FALSE (0003ms, 0921ms total)
T2B5C 001:864 JLINK_IsHalted()  returns FALSE (0003ms, 0921ms total)
T2B5C 001:869 JLINK_IsHalted()  returns FALSE (0003ms, 0921ms total)
T2B5C 001:874 JLINK_IsHalted()  returns FALSE (0002ms, 0920ms total)
T2B5C 001:878 JLINK_IsHalted()  returns FALSE (0003ms, 0921ms total)
T2B5C 001:884 JLINK_IsHalted()  returns FALSE (0003ms, 0921ms total)
T2B5C 001:889 JLINK_IsHalted()  returns FALSE (0003ms, 0921ms total)
T2B5C 001:894 JLINK_IsHalted()  returns FALSE (0003ms, 0921ms total)
T2B5C 001:899 JLINK_IsHalted()  returns FALSE (0003ms, 0921ms total)
T2B5C 001:904 JLINK_IsHalted()  returns FALSE (0002ms, 0920ms total)
T2B5C 001:909 JLINK_IsHalted()  returns FALSE (0003ms, 0921ms total)
T2B5C 001:920 JLINK_IsHalted()  returns FALSE (0003ms, 0921ms total)
T2B5C 001:925 JLINK_IsHalted()  returns FALSE (0002ms, 0920ms total)
T2B5C 001:931 JLINK_IsHalted()  returns FALSE (0003ms, 0921ms total)
T2B5C 001:936 JLINK_IsHalted()  returns FALSE (0003ms, 0921ms total)
T2B5C 001:943 JLINK_IsHalted()  returns FALSE (0003ms, 0921ms total)
T2B5C 001:948 JLINK_IsHalted()  returns FALSE (0003ms, 0921ms total)
T2B5C 001:960 JLINK_IsHalted()  returns FALSE (0002ms, 0920ms total)
T2B5C 001:965 JLINK_IsHalted()  returns FALSE (0002ms, 0920ms total)
T2B5C 001:970 JLINK_IsHalted()  returns FALSE (0003ms, 0921ms total)
T2B5C 001:975 JLINK_IsHalted()  returns FALSE (0003ms, 0921ms total)
T2B5C 001:980 JLINK_IsHalted()  returns FALSE (0004ms, 0922ms total)
T2B5C 001:985 JLINK_IsHalted()  returns FALSE (0003ms, 0921ms total)
T2B5C 001:990 JLINK_IsHalted()  returns FALSE (0003ms, 0921ms total)
T2B5C 001:995 JLINK_IsHalted()  returns FALSE (0003ms, 0921ms total)
T2B5C 002:000 JLINK_IsHalted()  returns FALSE (0003ms, 0921ms total)
T2B5C 002:005 JLINK_IsHalted()  returns FALSE (0003ms, 0921ms total)
T2B5C 002:010 JLINK_IsHalted()  returns FALSE (0003ms, 0921ms total)
T2B5C 002:015 JLINK_IsHalted()  returns FALSE (0003ms, 0921ms total)
T2B5C 002:029 JLINK_IsHalted() -- CPU_ReadMem(2 bytes @ 0x20000000)  returns TRUE (0051ms, 0969ms total)
T2B5C 002:080 JLINK_ReadReg(R15 (PC))  returns 0x20000000 (0000ms, 0918ms total)
T2B5C 002:080 JLINK_ClrBPEx(BPHandle = 0x00000005)  returns 0x00 (0000ms, 0918ms total)
T2B5C 002:080 JLINK_ReadReg(R0)  returns 0x00000000 (0000ms, 0918ms total)
T2B5C 002:081 JLINK_WriteReg(R0, 0x00000001)  returns 0x00 (0001ms, 0919ms total)
T2B5C 002:082 JLINK_WriteReg(R1, 0x00004000)  returns 0x00 (0000ms, 0919ms total)
T2B5C 002:082 JLINK_WriteReg(R2, 0x000000FF)  returns 0x00 (0000ms, 0919ms total)
T2B5C 002:082 JLINK_WriteReg(R3, 0x00000000)  returns 0x00 (0000ms, 0919ms total)
T2B5C 002:082 JLINK_WriteReg(R4, 0x00000000)  returns 0x00 (0000ms, 0919ms total)
T2B5C 002:082 JLINK_WriteReg(R5, 0x00000000)  returns 0x00 (0000ms, 0919ms total)
T2B5C 002:082 JLINK_WriteReg(R6, 0x00000000)  returns 0x00 (0000ms, 0919ms total)
T2B5C 002:082 JLINK_WriteReg(R7, 0x00000000)  returns 0x00 (0000ms, 0919ms total)
T2B5C 002:082 JLINK_WriteReg(R8, 0x00000000)  returns 0x00 (0000ms, 0919ms total)
T2B5C 002:082 JLINK_WriteReg(R9, 0x2000017C)  returns 0x00 (0000ms, 0919ms total)
T2B5C 002:082 JLINK_WriteReg(R10, 0x00000000)  returns 0x00 (0000ms, 0919ms total)
T2B5C 002:082 JLINK_WriteReg(R11, 0x00000000)  returns 0x00 (0000ms, 0919ms total)
T2B5C 002:082 JLINK_WriteReg(R12, 0x00000000)  returns 0x00 (0000ms, 0919ms total)
T2B5C 002:082 JLINK_WriteReg(R13 (SP), 0x20001000)  returns 0x00 (0000ms, 0919ms total)
T2B5C 002:082 JLINK_WriteReg(R14, 0x20000001)  returns 0x00 (0000ms, 0919ms total)
T2B5C 002:082 JLINK_WriteReg(R15 (PC), 0x20000082)  returns 0x00 (0000ms, 0919ms total)
T2B5C 002:082 JLINK_WriteReg(XPSR, 0x01000000)  returns 0x00 (0000ms, 0919ms total)
T2B5C 002:082 JLINK_WriteReg(MSP, 0x20001000)  returns 0x00 (0000ms, 0919ms total)
T2B5C 002:082 JLINK_WriteReg(PSP, 0x20001000)  returns 0x00 (0001ms, 0920ms total)
T2B5C 002:083 JLINK_WriteReg(CFBP, 0x00000000)  returns 0x00 (0000ms, 0920ms total)
T2B5C 002:083 JLINK_SetBPEx(Addr = 0x20000000, Type = 0xFFFFFFF2)  returns 0x00000006 (0000ms, 0920ms total)
T2B5C 002:083 JLINK_Go() (0010ms, 0930ms total)
T2B5C 002:093 JLINK_IsHalted() -- CPU_ReadMem(2 bytes @ 0x20000000)  returns TRUE (0052ms, 0982ms total)
T2B5C 002:145 JLINK_ReadReg(R15 (PC))  returns 0x20000000 (0000ms, 0930ms total)
T2B5C 002:145 JLINK_ClrBPEx(BPHandle = 0x00000006)  returns 0x00 (0000ms, 0930ms total)
T2B5C 002:145 JLINK_ReadReg(R0)  returns 0x00000000 (0000ms, 0930ms total)
T2B5C 002:214 JLINK_WriteMem(0x20000000, 0x0180 Bytes, ...) - Data: 00 BE 0A E0 0D 78 2D 06 68 40 08 24 40 00 00 D3 ... -- CPU_WriteMem(384 bytes @ 0x20000000)  returns 0x180 (0027ms, 0957ms total)
T2B5C 002:241 JLINK_WriteReg(R0, 0x08000000)  returns 0x00 (0000ms, 0957ms total)
T2B5C 002:241 JLINK_WriteReg(R1, 0x00B71B00)  returns 0x00 (0000ms, 0957ms total)
T2B5C 002:241 JLINK_WriteReg(R2, 0x00000002)  returns 0x00 (0000ms, 0957ms total)
T2B5C 002:241 JLINK_WriteReg(R3, 0x00000000)  returns 0x00 (0000ms, 0957ms total)
T2B5C 002:241 JLINK_WriteReg(R4, 0x00000000)  returns 0x00 (0000ms, 0957ms total)
T2B5C 002:241 JLINK_WriteReg(R5, 0x00000000)  returns 0x00 (0000ms, 0957ms total)
T2B5C 002:241 JLINK_WriteReg(R6, 0x00000000)  returns 0x00 (0000ms, 0957ms total)
T2B5C 002:241 JLINK_WriteReg(R7, 0x00000000)  returns 0x00 (0000ms, 0957ms total)
T2B5C 002:241 JLINK_WriteReg(R8, 0x00000000)  returns 0x00 (0000ms, 0957ms total)
T2B5C 002:241 JLINK_WriteReg(R9, 0x2000017C)  returns 0x00 (0000ms, 0957ms total)
T2B5C 002:241 JLINK_WriteReg(R10, 0x00000000)  returns 0x00 (0000ms, 0957ms total)
T2B5C 002:241 JLINK_WriteReg(R11, 0x00000000)  returns 0x00 (0000ms, 0957ms total)
T2B5C 002:241 JLINK_WriteReg(R12, 0x00000000)  returns 0x00 (0000ms, 0957ms total)
T2B5C 002:241 JLINK_WriteReg(R13 (SP), 0x20001000)  returns 0x00 (0000ms, 0957ms total)
T2B5C 002:241 JLINK_WriteReg(R14, 0x20000001)  returns 0x00 (0001ms, 0958ms total)
T2B5C 002:242 JLINK_WriteReg(R15 (PC), 0x20000054)  returns 0x00 (0000ms, 0958ms total)
T2B5C 002:242 JLINK_WriteReg(XPSR, 0x01000000)  returns 0x00 (0000ms, 0958ms total)
T2B5C 002:242 JLINK_WriteReg(MSP, 0x20001000)  returns 0x00 (0000ms, 0958ms total)
T2B5C 002:242 JLINK_WriteReg(PSP, 0x20001000)  returns 0x00 (0000ms, 0958ms total)
T2B5C 002:242 JLINK_WriteReg(CFBP, 0x00000000)  returns 0x00 (0000ms, 0958ms total)
T2B5C 002:242 JLINK_SetBPEx(Addr = 0x20000000, Type = 0xFFFFFFF2) -- CPU_ReadMem(2 bytes @ 0x20000000)  returns 0x00000007 (0003ms, 0961ms total)
T2B5C 002:245 JLINK_Go() -- CPU_WriteMem(2 bytes @ 0x20000000) (0011ms, 0972ms total)
T2B5C 002:256 JLINK_IsHalted() -- CPU_ReadMem(2 bytes @ 0x20000000)  returns TRUE (0052ms, 1024ms total)
T2B5C 002:308 JLINK_ReadReg(R15 (PC))  returns 0x20000000 (0000ms, 0972ms total)
T2B5C 002:308 JLINK_ClrBPEx(BPHandle = 0x00000007)  returns 0x00 (0000ms, 0972ms total)
T2B5C 002:308 JLINK_ReadReg(R0)  returns 0x00000000 (0000ms, 0972ms total)
T2B5C 002:309 JLINK_WriteMem(0x20000180, 0x0400 Bytes, ...) - Data: B8 86 00 20 59 02 00 08 B1 3A 00 08 F3 34 00 08 ... -- CPU_WriteMem(1024 bytes @ 0x20000180)  returns 0x400 (0065ms, 1037ms total)
T2B5C 002:374 JLINK_WriteReg(R0, 0x08000000)  returns 0x00 (0000ms, 1037ms total)
T2B5C 002:374 JLINK_WriteReg(R1, 0x00000400)  returns 0x00 (0000ms, 1037ms total)
T2B5C 002:374 JLINK_WriteReg(R2, 0x20000180)  returns 0x00 (0000ms, 1037ms total)
T2B5C 002:374 JLINK_WriteReg(R3, 0x00000000)  returns 0x00 (0000ms, 1037ms total)
T2B5C 002:374 JLINK_WriteReg(R4, 0x00000000)  returns 0x00 (0000ms, 1037ms total)
T2B5C 002:374 JLINK_WriteReg(R5, 0x00000000)  returns 0x00 (0000ms, 1037ms total)
T2B5C 002:374 JLINK_WriteReg(R6, 0x00000000)  returns 0x00 (0000ms, 1037ms total)
T2B5C 002:374 JLINK_WriteReg(R7, 0x00000000)  returns 0x00 (0000ms, 1037ms total)
T2B5C 002:374 JLINK_WriteReg(R8, 0x00000000)  returns 0x00 (0000ms, 1037ms total)
T2B5C 002:374 JLINK_WriteReg(R9, 0x2000017C)  returns 0x00 (0000ms, 1037ms total)
T2B5C 002:374 JLINK_WriteReg(R10, 0x00000000)  returns 0x00 (0000ms, 1037ms total)
T2B5C 002:374 JLINK_WriteReg(R11, 0x00000000)  returns 0x00 (0001ms, 1038ms total)
T2B5C 002:375 JLINK_WriteReg(R12, 0x00000000)  returns 0x00 (0000ms, 1038ms total)
T2B5C 002:375 JLINK_WriteReg(R13 (SP), 0x20001000)  returns 0x00 (0000ms, 1038ms total)
T2B5C 002:375 JLINK_WriteReg(R14, 0x20000001)  returns 0x00 (0000ms, 1038ms total)
T2B5C 002:375 JLINK_WriteReg(R15 (PC), 0x20000108)  returns 0x00 (0000ms, 1038ms total)
T2B5C 002:375 JLINK_WriteReg(XPSR, 0x01000000)  returns 0x00 (0000ms, 1038ms total)
T2B5C 002:375 JLINK_WriteReg(MSP, 0x20001000)  returns 0x00 (0000ms, 1038ms total)
T2B5C 002:375 JLINK_WriteReg(PSP, 0x20001000)  returns 0x00 (0000ms, 1038ms total)
T2B5C 002:375 JLINK_WriteReg(CFBP, 0x00000000)  returns 0x00 (0000ms, 1038ms total)
T2B5C 002:375 JLINK_SetBPEx(Addr = 0x20000000, Type = 0xFFFFFFF2)  returns 0x00000008 (0000ms, 1038ms total)
T2B5C 002:375 JLINK_Go() (0009ms, 1047ms total)
T2B5C 002:384 JLINK_IsHalted()  returns FALSE (0004ms, 1051ms total)
T2B5C 002:432 JLINK_IsHalted() -- CPU_ReadMem(2 bytes @ 0x20000000)  returns TRUE (0050ms, 1097ms total)
T2B5C 002:482 JLINK_ReadReg(R15 (PC))  returns 0x20000000 (0000ms, 1047ms total)
T2B5C 002:482 JLINK_ClrBPEx(BPHandle = 0x00000008)  returns 0x00 (0000ms, 1047ms total)
T2B5C 002:482 JLINK_ReadReg(R0)  returns 0x00000000 (0000ms, 1047ms total)
T2B5C 002:484 JLINK_WriteMem(0x20000180, 0x0400 Bytes, ...) - Data: E0 73 00 98 21 46 4F EA E0 74 B8 EB 00 00 61 EB ... -- CPU_WriteMem(1024 bytes @ 0x20000180)  returns 0x400 (0065ms, 1112ms total)
T2B5C 002:549 JLINK_WriteReg(R0, 0x08000400)  returns 0x00 (0000ms, 1112ms total)
T2B5C 002:549 JLINK_WriteReg(R1, 0x00000400)  returns 0x00 (0000ms, 1112ms total)
T2B5C 002:549 JLINK_WriteReg(R2, 0x20000180)  returns 0x00 (0000ms, 1112ms total)
T2B5C 002:549 JLINK_WriteReg(R3, 0x00000000)  returns 0x00 (0000ms, 1112ms total)
T2B5C 002:549 JLINK_WriteReg(R4, 0x00000000)  returns 0x00 (0000ms, 1112ms total)
T2B5C 002:549 JLINK_WriteReg(R5, 0x00000000)  returns 0x00 (0000ms, 1112ms total)
T2B5C 002:549 JLINK_WriteReg(R6, 0x00000000)  returns 0x00 (0000ms, 1112ms total)
T2B5C 002:549 JLINK_WriteReg(R7, 0x00000000)  returns 0x00 (0000ms, 1112ms total)
T2B5C 002:549 JLINK_WriteReg(R8, 0x00000000)  returns 0x00 (0000ms, 1112ms total)
T2B5C 002:549 JLINK_WriteReg(R9, 0x2000017C)  returns 0x00 (0000ms, 1112ms total)
T2B5C 002:549 JLINK_WriteReg(R10, 0x00000000)  returns 0x00 (0000ms, 1112ms total)
T2B5C 002:549 JLINK_WriteReg(R11, 0x00000000)  returns 0x00 (0000ms, 1112ms total)
T2B5C 002:549 JLINK_WriteReg(R12, 0x00000000)  returns 0x00 (0000ms, 1112ms total)
T2B5C 002:549 JLINK_WriteReg(R13 (SP), 0x20001000)  returns 0x00 (0000ms, 1112ms total)
T2B5C 002:549 JLINK_WriteReg(R14, 0x20000001)  returns 0x00 (0000ms, 1112ms total)
T2B5C 002:549 JLINK_WriteReg(R15 (PC), 0x20000108)  returns 0x00 (0000ms, 1112ms total)
T2B5C 002:549 JLINK_WriteReg(XPSR, 0x01000000)  returns 0x00 (0000ms, 1112ms total)
T2B5C 002:549 JLINK_WriteReg(MSP, 0x20001000)  returns 0x00 (0000ms, 1112ms total)
T2B5C 002:549 JLINK_WriteReg(PSP, 0x20001000)  returns 0x00 (0000ms, 1112ms total)
T2B5C 002:549 JLINK_WriteReg(CFBP, 0x00000000)  returns 0x00 (0001ms, 1113ms total)
T2B5C 002:550 JLINK_SetBPEx(Addr = 0x20000000, Type = 0xFFFFFFF2)  returns 0x00000009 (0000ms, 1113ms total)
T2B5C 002:550 JLINK_Go() (0009ms, 1122ms total)
T2B5C 002:559 JLINK_IsHalted()  returns FALSE (0004ms, 1126ms total)
T2B5C 002:595 JLINK_IsHalted() -- CPU_ReadMem(2 bytes @ 0x20000000)  returns TRUE (0051ms, 1173ms total)
T2B5C 002:646 JLINK_ReadReg(R15 (PC))  returns 0x20000000 (0000ms, 1122ms total)
T2B5C 002:646 JLINK_ClrBPEx(BPHandle = 0x00000009)  returns 0x00 (0000ms, 1122ms total)
T2B5C 002:646 JLINK_ReadReg(R0)  returns 0x00000000 (0000ms, 1122ms total)
T2B5C 002:647 JLINK_WriteMem(0x20000180, 0x0400 Bytes, ...) - Data: C8 61 20 68 00 F5 D8 70 00 EB 05 10 80 68 61 6B ... -- CPU_WriteMem(1024 bytes @ 0x20000180)  returns 0x400 (0066ms, 1188ms total)
T2B5C 002:714 JLINK_WriteReg(R0, 0x08000800)  returns 0x00 (0000ms, 1188ms total)
T2B5C 002:714 JLINK_WriteReg(R1, 0x00000400)  returns 0x00 (0000ms, 1188ms total)
T2B5C 002:714 JLINK_WriteReg(R2, 0x20000180)  returns 0x00 (0000ms, 1188ms total)
T2B5C 002:714 JLINK_WriteReg(R3, 0x00000000)  returns 0x00 (0000ms, 1188ms total)
T2B5C 002:714 JLINK_WriteReg(R4, 0x00000000)  returns 0x00 (0000ms, 1188ms total)
T2B5C 002:714 JLINK_WriteReg(R5, 0x00000000)  returns 0x00 (0000ms, 1188ms total)
T2B5C 002:714 JLINK_WriteReg(R6, 0x00000000)  returns 0x00 (0000ms, 1188ms total)
T2B5C 002:714 JLINK_WriteReg(R7, 0x00000000)  returns 0x00 (0000ms, 1188ms total)
T2B5C 002:714 JLINK_WriteReg(R8, 0x00000000)  returns 0x00 (0000ms, 1188ms total)
T2B5C 002:714 JLINK_WriteReg(R9, 0x2000017C)  returns 0x00 (0000ms, 1188ms total)
T2B5C 002:714 JLINK_WriteReg(R10, 0x00000000)  returns 0x00 (0000ms, 1188ms total)
T2B5C 002:714 JLINK_WriteReg(R11, 0x00000000)  returns 0x00 (0001ms, 1189ms total)
T2B5C 002:715 JLINK_WriteReg(R12, 0x00000000)  returns 0x00 (0000ms, 1189ms total)
T2B5C 002:715 JLINK_WriteReg(R13 (SP), 0x20001000)  returns 0x00 (0000ms, 1189ms total)
T2B5C 002:715 JLINK_WriteReg(R14, 0x20000001)  returns 0x00 (0000ms, 1189ms total)
T2B5C 002:715 JLINK_WriteReg(R15 (PC), 0x20000108)  returns 0x00 (0000ms, 1189ms total)
T2B5C 002:715 JLINK_WriteReg(XPSR, 0x01000000)  returns 0x00 (0000ms, 1189ms total)
T2B5C 002:715 JLINK_WriteReg(MSP, 0x20001000)  returns 0x00 (0000ms, 1189ms total)
T2B5C 002:715 JLINK_WriteReg(PSP, 0x20001000)  returns 0x00 (0000ms, 1189ms total)
T2B5C 002:715 JLINK_WriteReg(CFBP, 0x00000000)  returns 0x00 (0000ms, 1189ms total)
T2B5C 002:715 JLINK_SetBPEx(Addr = 0x20000000, Type = 0xFFFFFFF2)  returns 0x0000000A (0000ms, 1189ms total)
T2B5C 002:715 JLINK_Go() (0010ms, 1199ms total)
T2B5C 002:725 JLINK_IsHalted()  returns FALSE (0004ms, 1203ms total)
T2B5C 002:769 JLINK_IsHalted() -- CPU_ReadMem(2 bytes @ 0x20000000)  returns TRUE (0051ms, 1250ms total)
T2B5C 002:820 JLINK_ReadReg(R15 (PC))  returns 0x20000000 (0000ms, 1199ms total)
T2B5C 002:820 JLINK_ClrBPEx(BPHandle = 0x0000000A)  returns 0x00 (0000ms, 1199ms total)
T2B5C 002:820 JLINK_ReadReg(R0)  returns 0x00000000 (0000ms, 1199ms total)
T2B5C 002:822 JLINK_WriteMem(0x20000180, 0x0400 Bytes, ...) - Data: 32 B1 01 2A 06 D0 02 2A 0C D0 03 2A 12 D1 0B E0 ... -- CPU_WriteMem(1024 bytes @ 0x20000180)  returns 0x400 (0064ms, 1263ms total)
T2B5C 002:886 JLINK_WriteReg(R0, 0x08000C00)  returns 0x00 (0000ms, 1263ms total)
T2B5C 002:886 JLINK_WriteReg(R1, 0x00000400)  returns 0x00 (0000ms, 1263ms total)
T2B5C 002:886 JLINK_WriteReg(R2, 0x20000180)  returns 0x00 (0000ms, 1263ms total)
T2B5C 002:886 JLINK_WriteReg(R3, 0x00000000)  returns 0x00 (0000ms, 1263ms total)
T2B5C 002:886 JLINK_WriteReg(R4, 0x00000000)  returns 0x00 (0000ms, 1263ms total)
T2B5C 002:886 JLINK_WriteReg(R5, 0x00000000)  returns 0x00 (0000ms, 1263ms total)
T2B5C 002:886 JLINK_WriteReg(R6, 0x00000000)  returns 0x00 (0000ms, 1263ms total)
T2B5C 002:886 JLINK_WriteReg(R7, 0x00000000)  returns 0x00 (0000ms, 1263ms total)
T2B5C 002:886 JLINK_WriteReg(R8, 0x00000000)  returns 0x00 (0000ms, 1263ms total)
T2B5C 002:886 JLINK_WriteReg(R9, 0x2000017C)  returns 0x00 (0000ms, 1263ms total)
T2B5C 002:886 JLINK_WriteReg(R10, 0x00000000)  returns 0x00 (0000ms, 1263ms total)
T2B5C 002:886 JLINK_WriteReg(R11, 0x00000000)  returns 0x00 (0000ms, 1263ms total)
T2B5C 002:886 JLINK_WriteReg(R12, 0x00000000)  returns 0x00 (0000ms, 1263ms total)
T2B5C 002:886 JLINK_WriteReg(R13 (SP), 0x20001000)  returns 0x00 (0000ms, 1263ms total)
T2B5C 002:886 JLINK_WriteReg(R14, 0x20000001)  returns 0x00 (0001ms, 1264ms total)
T2B5C 002:887 JLINK_WriteReg(R15 (PC), 0x20000108)  returns 0x00 (0000ms, 1264ms total)
T2B5C 002:887 JLINK_WriteReg(XPSR, 0x01000000)  returns 0x00 (0000ms, 1264ms total)
T2B5C 002:887 JLINK_WriteReg(MSP, 0x20001000)  returns 0x00 (0000ms, 1264ms total)
T2B5C 002:887 JLINK_WriteReg(PSP, 0x20001000)  returns 0x00 (0000ms, 1264ms total)
T2B5C 002:887 JLINK_WriteReg(CFBP, 0x00000000)  returns 0x00 (0000ms, 1264ms total)
T2B5C 002:887 JLINK_SetBPEx(Addr = 0x20000000, Type = 0xFFFFFFF2)  returns 0x0000000B (0000ms, 1264ms total)
T2B5C 002:887 JLINK_Go() (0010ms, 1274ms total)
T2B5C 002:897 JLINK_IsHalted()  returns FALSE (0004ms, 1278ms total)
T2B5C 002:921 JLINK_IsHalted() -- CPU_ReadMem(2 bytes @ 0x20000000)  returns TRUE (0052ms, 1326ms total)
T2B5C 002:973 JLINK_ReadReg(R15 (PC))  returns 0x20000000 (0000ms, 1274ms total)
T2B5C 002:973 JLINK_ClrBPEx(BPHandle = 0x0000000B)  returns 0x00 (0000ms, 1274ms total)
T2B5C 002:973 JLINK_ReadReg(R0)  returns 0x00000000 (0000ms, 1274ms total)
T2B5C 002:974 JLINK_WriteMem(0x20000180, 0x0400 Bytes, ...) - Data: 88 88 80 B2 0C 88 40 EA 04 44 23 48 40 30 4D 69 ... -- CPU_WriteMem(1024 bytes @ 0x20000180)  returns 0x400 (0065ms, 1339ms total)
T2B5C 003:040 JLINK_WriteReg(R0, 0x08001000)  returns 0x00 (0000ms, 1339ms total)
T2B5C 003:040 JLINK_WriteReg(R1, 0x00000400)  returns 0x00 (0000ms, 1339ms total)
T2B5C 003:040 JLINK_WriteReg(R2, 0x20000180)  returns 0x00 (0001ms, 1340ms total)
T2B5C 003:041 JLINK_WriteReg(R3, 0x00000000)  returns 0x00 (0000ms, 1340ms total)
T2B5C 003:041 JLINK_WriteReg(R4, 0x00000000)  returns 0x00 (0000ms, 1340ms total)
T2B5C 003:041 JLINK_WriteReg(R5, 0x00000000)  returns 0x00 (0000ms, 1340ms total)
T2B5C 003:041 JLINK_WriteReg(R6, 0x00000000)  returns 0x00 (0000ms, 1340ms total)
T2B5C 003:041 JLINK_WriteReg(R7, 0x00000000)  returns 0x00 (0000ms, 1340ms total)
T2B5C 003:041 JLINK_WriteReg(R8, 0x00000000)  returns 0x00 (0000ms, 1340ms total)
T2B5C 003:041 JLINK_WriteReg(R9, 0x2000017C)  returns 0x00 (0000ms, 1340ms total)
T2B5C 003:041 JLINK_WriteReg(R10, 0x00000000)  returns 0x00 (0000ms, 1340ms total)
T2B5C 003:041 JLINK_WriteReg(R11, 0x00000000)  returns 0x00 (0000ms, 1340ms total)
T2B5C 003:041 JLINK_WriteReg(R12, 0x00000000)  returns 0x00 (0000ms, 1340ms total)
T2B5C 003:041 JLINK_WriteReg(R13 (SP), 0x20001000)  returns 0x00 (0000ms, 1340ms total)
T2B5C 003:041 JLINK_WriteReg(R14, 0x20000001)  returns 0x00 (0000ms, 1340ms total)
T2B5C 003:041 JLINK_WriteReg(R15 (PC), 0x20000108)  returns 0x00 (0000ms, 1340ms total)
T2B5C 003:041 JLINK_WriteReg(XPSR, 0x01000000)  returns 0x00 (0000ms, 1340ms total)
T2B5C 003:041 JLINK_WriteReg(MSP, 0x20001000)  returns 0x00 (0000ms, 1340ms total)
T2B5C 003:041 JLINK_WriteReg(PSP, 0x20001000)  returns 0x00 (0000ms, 1340ms total)
T2B5C 003:041 JLINK_WriteReg(CFBP, 0x00000000)  returns 0x00 (0000ms, 1340ms total)
T2B5C 003:041 JLINK_SetBPEx(Addr = 0x20000000, Type = 0xFFFFFFF2)  returns 0x0000000C (0000ms, 1340ms total)
T2B5C 003:041 JLINK_Go() (0010ms, 1350ms total)
T2B5C 003:051 JLINK_IsHalted()  returns FALSE (0004ms, 1354ms total)
T2B5C 003:092 JLINK_IsHalted() -- CPU_ReadMem(2 bytes @ 0x20000000)  returns TRUE (0051ms, 1401ms total)
T2B5C 003:143 JLINK_ReadReg(R15 (PC))  returns 0x20000000 (0000ms, 1350ms total)
T2B5C 003:143 JLINK_ClrBPEx(BPHandle = 0x0000000C)  returns 0x00 (0000ms, 1350ms total)
T2B5C 003:143 JLINK_ReadReg(R0)  returns 0x00000000 (0000ms, 1350ms total)
T2B5C 003:144 JLINK_WriteMem(0x20000180, 0x0400 Bytes, ...) - Data: 20 68 40 68 00 F0 01 00 08 B1 00 26 00 E0 01 26 ... -- CPU_WriteMem(1024 bytes @ 0x20000180)  returns 0x400 (0065ms, 1415ms total)
T2B5C 003:209 JLINK_WriteReg(R0, 0x08001400)  returns 0x00 (0001ms, 1416ms total)
T2B5C 003:210 JLINK_WriteReg(R1, 0x00000400)  returns 0x00 (0000ms, 1416ms total)
T2B5C 003:210 JLINK_WriteReg(R2, 0x20000180)  returns 0x00 (0000ms, 1416ms total)
T2B5C 003:210 JLINK_WriteReg(R3, 0x00000000)  returns 0x00 (0000ms, 1416ms total)
T2B5C 003:210 JLINK_WriteReg(R4, 0x00000000)  returns 0x00 (0000ms, 1416ms total)
T2B5C 003:210 JLINK_WriteReg(R5, 0x00000000)  returns 0x00 (0000ms, 1416ms total)
T2B5C 003:210 JLINK_WriteReg(R6, 0x00000000)  returns 0x00 (0000ms, 1416ms total)
T2B5C 003:210 JLINK_WriteReg(R7, 0x00000000)  returns 0x00 (0000ms, 1416ms total)
T2B5C 003:210 JLINK_WriteReg(R8, 0x00000000)  returns 0x00 (0000ms, 1416ms total)
T2B5C 003:210 JLINK_WriteReg(R9, 0x2000017C)  returns 0x00 (0000ms, 1416ms total)
T2B5C 003:210 JLINK_WriteReg(R10, 0x00000000)  returns 0x00 (0000ms, 1416ms total)
T2B5C 003:210 JLINK_WriteReg(R11, 0x00000000)  returns 0x00 (0000ms, 1416ms total)
T2B5C 003:210 JLINK_WriteReg(R12, 0x00000000)  returns 0x00 (0000ms, 1416ms total)
T2B5C 003:210 JLINK_WriteReg(R13 (SP), 0x20001000)  returns 0x00 (0000ms, 1416ms total)
T2B5C 003:210 JLINK_WriteReg(R14, 0x20000001)  returns 0x00 (0000ms, 1416ms total)
T2B5C 003:210 JLINK_WriteReg(R15 (PC), 0x20000108)  returns 0x00 (0000ms, 1416ms total)
T2B5C 003:210 JLINK_WriteReg(XPSR, 0x01000000)  returns 0x00 (0001ms, 1417ms total)
T2B5C 003:211 JLINK_WriteReg(MSP, 0x20001000)  returns 0x00 (0000ms, 1417ms total)
T2B5C 003:211 JLINK_WriteReg(PSP, 0x20001000)  returns 0x00 (0000ms, 1417ms total)
T2B5C 003:211 JLINK_WriteReg(CFBP, 0x00000000)  returns 0x00 (0000ms, 1417ms total)
T2B5C 003:211 JLINK_SetBPEx(Addr = 0x20000000, Type = 0xFFFFFFF2)  returns 0x0000000D (0000ms, 1417ms total)
T2B5C 003:211 JLINK_Go() (0010ms, 1427ms total)
T2B5C 003:221 JLINK_IsHalted()  returns FALSE (0003ms, 1430ms total)
T2B5C 003:273 JLINK_IsHalted() -- CPU_ReadMem(2 bytes @ 0x20000000)  returns TRUE (0050ms, 1477ms total)
T2B5C 003:323 JLINK_ReadReg(R15 (PC))  returns 0x20000000 (0000ms, 1427ms total)
T2B5C 003:323 JLINK_ClrBPEx(BPHandle = 0x0000000D)  returns 0x00 (0000ms, 1427ms total)
T2B5C 003:324 JLINK_ReadReg(R0)  returns 0x00000000 (0000ms, 1427ms total)
T2B5C 003:324 JLINK_WriteMem(0x20000180, 0x0400 Bytes, ...) - Data: 11 E0 70 1C 78 B1 26 B1 00 F0 A4 FB C0 1B B0 42 ... -- CPU_WriteMem(1024 bytes @ 0x20000180)  returns 0x400 (0065ms, 1492ms total)
T2B5C 003:389 JLINK_WriteReg(R0, 0x08001800)  returns 0x00 (0000ms, 1492ms total)
T2B5C 003:389 JLINK_WriteReg(R1, 0x00000400)  returns 0x00 (0000ms, 1492ms total)
T2B5C 003:389 JLINK_WriteReg(R2, 0x20000180)  returns 0x00 (0000ms, 1492ms total)
T2B5C 003:389 JLINK_WriteReg(R3, 0x00000000)  returns 0x00 (0000ms, 1492ms total)
T2B5C 003:389 JLINK_WriteReg(R4, 0x00000000)  returns 0x00 (0000ms, 1492ms total)
T2B5C 003:389 JLINK_WriteReg(R5, 0x00000000)  returns 0x00 (0000ms, 1492ms total)
T2B5C 003:389 JLINK_WriteReg(R6, 0x00000000)  returns 0x00 (0001ms, 1493ms total)
T2B5C 003:390 JLINK_WriteReg(R7, 0x00000000)  returns 0x00 (0000ms, 1493ms total)
T2B5C 003:390 JLINK_WriteReg(R8, 0x00000000)  returns 0x00 (0000ms, 1493ms total)
T2B5C 003:390 JLINK_WriteReg(R9, 0x2000017C)  returns 0x00 (0000ms, 1493ms total)
T2B5C 003:390 JLINK_WriteReg(R10, 0x00000000)  returns 0x00 (0000ms, 1493ms total)
T2B5C 003:390 JLINK_WriteReg(R11, 0x00000000)  returns 0x00 (0000ms, 1493ms total)
T2B5C 003:390 JLINK_WriteReg(R12, 0x00000000)  returns 0x00 (0000ms, 1493ms total)
T2B5C 003:390 JLINK_WriteReg(R13 (SP), 0x20001000)  returns 0x00 (0000ms, 1493ms total)
T2B5C 003:390 JLINK_WriteReg(R14, 0x20000001)  returns 0x00 (0000ms, 1493ms total)
T2B5C 003:390 JLINK_WriteReg(R15 (PC), 0x20000108)  returns 0x00 (0000ms, 1493ms total)
T2B5C 003:390 JLINK_WriteReg(XPSR, 0x01000000)  returns 0x00 (0000ms, 1493ms total)
T2B5C 003:390 JLINK_WriteReg(MSP, 0x20001000)  returns 0x00 (0000ms, 1493ms total)
T2B5C 003:390 JLINK_WriteReg(PSP, 0x20001000)  returns 0x00 (0000ms, 1493ms total)
T2B5C 003:390 JLINK_WriteReg(CFBP, 0x00000000)  returns 0x00 (0000ms, 1493ms total)
T2B5C 003:390 JLINK_SetBPEx(Addr = 0x20000000, Type = 0xFFFFFFF2)  returns 0x0000000E (0000ms, 1493ms total)
T2B5C 003:390 JLINK_Go() (0010ms, 1503ms total)
T2B5C 003:400 JLINK_IsHalted()  returns FALSE (0003ms, 1506ms total)
T2B5C 003:432 JLINK_IsHalted() -- CPU_ReadMem(2 bytes @ 0x20000000)  returns TRUE (0051ms, 1554ms total)
T2B5C 003:483 JLINK_ReadReg(R15 (PC))  returns 0x20000000 (0000ms, 1503ms total)
T2B5C 003:483 JLINK_ClrBPEx(BPHandle = 0x0000000E)  returns 0x00 (0000ms, 1503ms total)
T2B5C 003:483 JLINK_ReadReg(R0)  returns 0x00000000 (0000ms, 1503ms total)
T2B5C 003:484 JLINK_WriteMem(0x20000180, 0x0400 Bytes, ...) - Data: 05 28 05 D9 20 20 60 65 03 20 84 F8 35 00 E0 E7 ... -- CPU_WriteMem(1024 bytes @ 0x20000180)  returns 0x400 (0065ms, 1568ms total)
T2B5C 003:549 JLINK_WriteReg(R0, 0x08001C00)  returns 0x00 (0000ms, 1568ms total)
T2B5C 003:549 JLINK_WriteReg(R1, 0x00000400)  returns 0x00 (0000ms, 1568ms total)
T2B5C 003:549 JLINK_WriteReg(R2, 0x20000180)  returns 0x00 (0000ms, 1568ms total)
T2B5C 003:549 JLINK_WriteReg(R3, 0x00000000)  returns 0x00 (0000ms, 1568ms total)
T2B5C 003:549 JLINK_WriteReg(R4, 0x00000000)  returns 0x00 (0000ms, 1568ms total)
T2B5C 003:549 JLINK_WriteReg(R5, 0x00000000)  returns 0x00 (0000ms, 1568ms total)
T2B5C 003:549 JLINK_WriteReg(R6, 0x00000000)  returns 0x00 (0000ms, 1568ms total)
T2B5C 003:549 JLINK_WriteReg(R7, 0x00000000)  returns 0x00 (0000ms, 1568ms total)
T2B5C 003:549 JLINK_WriteReg(R8, 0x00000000)  returns 0x00 (0000ms, 1568ms total)
T2B5C 003:549 JLINK_WriteReg(R9, 0x2000017C)  returns 0x00 (0001ms, 1569ms total)
T2B5C 003:550 JLINK_WriteReg(R10, 0x00000000)  returns 0x00 (0000ms, 1569ms total)
T2B5C 003:550 JLINK_WriteReg(R11, 0x00000000)  returns 0x00 (0000ms, 1569ms total)
T2B5C 003:550 JLINK_WriteReg(R12, 0x00000000)  returns 0x00 (0000ms, 1569ms total)
T2B5C 003:550 JLINK_WriteReg(R13 (SP), 0x20001000)  returns 0x00 (0000ms, 1569ms total)
T2B5C 003:550 JLINK_WriteReg(R14, 0x20000001)  returns 0x00 (0000ms, 1569ms total)
T2B5C 003:550 JLINK_WriteReg(R15 (PC), 0x20000108)  returns 0x00 (0000ms, 1569ms total)
T2B5C 003:550 JLINK_WriteReg(XPSR, 0x01000000)  returns 0x00 (0000ms, 1569ms total)
T2B5C 003:550 JLINK_WriteReg(MSP, 0x20001000)  returns 0x00 (0000ms, 1569ms total)
